
T14BC 000:417 SEGGER J-Link V4.96d Log File (0014ms, 0289ms total)
T14BC 000:417 DLL Compiled: Jan 29 2015 11:45:37 (0014ms, 0289ms total)
T14BC 000:417 Logging started @ 2020-12-08 08:56 (0015ms, 0290ms total)
T14BC 000:432 JLINK_SetWarnOutHandler(...) (0000ms, 0290ms total)
T14BC 000:432 JLINK_OpenEx(...)
Firmware: J-Link ARM-OB STM32 compiled Jun 30 2039 11:14:15
Hardware: V7.00
S/N: 20090928
Feature(s): RDI,FlashDL,FlashBP,JFlash,GDBFull  returns O.K. (0270ms, 0560ms total)
T14BC 000:702 JLINK_SetErrorOutHandler(...) (0000ms, 0560ms total)
T14BC 000:702 JLINK_ExecCommand("ProjectFile = "C:\Users\Administrator\Desktop\电子小说阅读器\源代码\电子小说阅读器\USER\JLinkSettings.ini"", ...)Device "UNSPECIFIED" selected.  returns 0x00 (0023ms, 0583ms total)
T14BC 000:760 JLINK_ExecCommand("Device = STM32F407ZG", ...)Device "STM32F407ZG" selected.  returns 0x00 (0023ms, 0606ms total)
T14BC 000:783 JLINK_ExecCommand("DisableConnectionTimeout", ...)  returns 0x01 (0000ms, 0606ms total)
T14BC 000:783 JLINK_GetHardwareVersion()  returns 0x11170 (0000ms, 0606ms total)
T14BC 000:783 JLINK_GetDLLVersion()  returns 49604 (0000ms, 0606ms total)
T14BC 000:783 JLINK_GetFirmwareString(...) (0000ms, 0606ms total)
T14BC 000:821 JLINK_GetDLLVersion()  returns 49604 (0000ms, 0606ms total)
T14BC 000:821 JLINK_GetCompileDateTime() (0001ms, 0607ms total)
T14BC 000:830 JLINK_GetFirmwareString(...) (0000ms, 0607ms total)
T14BC 000:837 JLINK_GetHardwareVersion()  returns 0x11170 (0000ms, 0607ms total)
T14BC 000:873 JLINK_TIF_Select(JLINKARM_TIF_SWD)  returns 0x00 (0001ms, 0608ms total)
T14BC 000:874 JLINK_SetSpeed(20000) (0000ms, 0608ms total)
T14BC 000:874 JLINK_GetId() >0x108 TIF>Found SWD-DP with ID 0x2BA01477 >0x0D TIF> >0x28 TIF> >0x0D TIF> >0x28 TIF> >0x0D TIF> >0x21 TIF> >0x0D TIF> >0x28 TIF> >0x0D TIF> >0x28 TIF> >0x0D TIF> >0x28 TIF> >0x0D TIF> >0x21 TIF> >0x0D TIF> >0x21 TIF> >0x0D TIF> >0x28 TIF> >0x0D TIF> >0x21 TIF> >0x0D TIF> >0x21 TIF> >0x0D TIF> >0x28 TIF> >0x0D TIF> >0x28 TIF> >0x0D TIF> >0x28 TIF> >0x0D TIF> >0x21 TIF> >0x0D TIF> >0x21 TIF> >0x0D TIF> >0x28 TIF> >0x0D TIF> >0x28 TIF> >0x108 TIF>Found SWD-DP with ID 0x2BA01477
 >0x0D TIF> >0x21 TIF> >0x0D TIF> >0x28 TIF> >0x0D TIF> >0x28 TIF> >0x0D TIF> >0x21 TIF> >0x0D TIF> >0x28 TIF> >0x0D TIF> >0x21 TIF> >0x0D TIF> >0x21 TIF> >0x0D TIF> >0x21 TIF> >0x0D TIF> >0x28 TIF> >0x0D TIF> >0x21 TIF> >0x0D TIF> >0x28 TIF> >0x0D TIF> >0x28 TIF> >0x0D TIF> >0x21 TIF> >0x0D TIF> >0x28 TIF> >0x0D TIF> >0x28 TIF> >0x0D TIF> >0x28 TIF> >0x0D TIF> >0x21 TIF> >0x0D TIF> >0x21 TIF> >0x0D TIF> >0x28 TIF> >0x0D TIF> >0x21 TIF> >0x0D TIF> >0x21 TIF>Found Cortex-M4 r0p1, Little endian. >0x0D TIF>
 >0x28 TIF> >0x0D TIF> >0x28 TIF> >0x1A2 TIF> >0x0D TIF> >0x28 TIF> >0x0D TIF> >0x28 TIF> >0x1A0 TIF> >0x0D TIF> >0x28 TIF> >0x0D TIF> >0x28 TIF> >0x1A2 TIF> >0x0D TIF> >0x28 TIF> >0x0D TIF> >0x28 TIF> >0x1A0 TIF> >0x0D TIF> >0x28 TIF>FPUnit: 6 code (BP) slots and 2 literal slots >0x0D TIF> >0x28 TIF> >0x1A0 TIF> >0x0D TIF> >0x28 TIF> >0x0D TIF> >0x28 TIF> >0x1A2 TIF> >0x0D TIF> >0x28 TIF> >0x0D TIF> >0x28 TIF> >0x1A0 TIF> >0x0D TIF> >0x28 TIF> >0x0D TIF> >0x28 TIF> >0x1A2 TIF> >0x0D TIF> >0x28 TIF>
 >0x0D TIF> >0x28 TIF> >0x1A0 TIF> >0x0D TIF> >0x28 TIF> >0x0D TIF> >0x28 TIF> >0x1A2 TIF> >0x0D TIF> >0x28 TIF> >0x0D TIF> >0x28 TIF> >0x1A0 TIF> >0x0D TIF> >0x28 TIF> >0x0D TIF> >0x28 TIF> >0x1A2 TIF> >0x0D TIF> >0x28 TIF> >0x0D TIF> >0x28 TIF> >0x1A0 TIF> >0x0D TIF> >0x28 TIF>TPIU fitted. >0x0D TIF> >0x28 TIF> >0x1A0 TIF> >0x0D TIF> >0x28 TIF>ETM fitted. >0x0D TIF> >0x28 TIF> >0x1A0 TIF> >0x0D TIF> >0x28 TIF> >0x0D TIF> >0x21 TIF>  returns 0x2BA01477 (3283ms, 3891ms total)
T14BC 004:158 JLINK_GetDLLVersion()  returns 49604 (0000ms, 3891ms total)
T14BC 004:158 JLINK_CORE_GetFound()  returns 0xE0000FF (0000ms, 3891ms total)
T14BC 004:158 JLINK_GetDebugInfo(0x100) -- Value=0xE00FF003  returns 0x00 (0000ms, 3891ms total)
T14BC 004:167 JLINK_ReadMem (0xE00FF000, 0x0020 Bytes, ...) -- CPU is running >0x0D TIF> >0x28 TIF> >0x305 TIF> >0x0D TIF> >0x28 TIF> - Data: 03 F0 F0 FF 03 20 F0 FF 03 30 F0 FF 03 10 F0 FF ...  returns 0x00 (0003ms, 3894ms total)
T14BC 004:170 JLINK_ReadMem (0xE000EFF0, 0x0010 Bytes, ...) -- CPU is running >0x0D TIF> >0x28 TIF> >0x239 TIF> >0x0D TIF> >0x28 TIF> - Data: 0D 00 00 00 E0 00 00 00 05 00 00 00 B1 00 00 00  returns 0x00 (0003ms, 3897ms total)
T14BC 004:173 JLINK_ReadMem (0xE000EFD0, 0x0020 Bytes, ...) -- CPU is running >0x0D TIF> >0x28 TIF> >0x305 TIF> >0x0D TIF> >0x28 TIF> - Data: 04 00 00 00 00 00 00 00 00 00 00 00 00 00 00 00 ...  returns 0x00 (0003ms, 3900ms total)
T14BC 004:176 JLINK_ReadMem (0xE0001FF0, 0x0010 Bytes, ...) -- CPU is running >0x0D TIF> >0x28 TIF> >0x239 TIF> >0x0D TIF> >0x28 TIF> - Data: 0D 00 00 00 E0 00 00 00 05 00 00 00 B1 00 00 00  returns 0x00 (0002ms, 3902ms total)
T14BC 004:178 JLINK_ReadMem (0xE0001FD0, 0x0020 Bytes, ...) -- CPU is running >0x0D TIF> >0x28 TIF> >0x305 TIF> >0x0D TIF> >0x28 TIF> - Data: 04 00 00 00 00 00 00 00 00 00 00 00 00 00 00 00 ...  returns 0x00 (0003ms, 3905ms total)
T14BC 004:181 JLINK_ReadMem (0xE0002FF0, 0x0010 Bytes, ...) -- CPU is running >0x0D TIF> >0x28 TIF> >0x239 TIF> >0x0D TIF> >0x28 TIF> - Data: 0D 00 00 00 E0 00 00 00 05 00 00 00 B1 00 00 00  returns 0x00 (0003ms, 3908ms total)
T14BC 004:184 JLINK_ReadMem (0xE0002FD0, 0x0020 Bytes, ...) -- CPU is running >0x0D TIF> >0x28 TIF> >0x305 TIF> >0x0D TIF> >0x28 TIF> - Data: 04 00 00 00 00 00 00 00 00 00 00 00 00 00 00 00 ...  returns 0x00 (0004ms, 3912ms total)
T14BC 004:188 JLINK_ReadMem (0xE0000FF0, 0x0010 Bytes, ...) -- CPU is running >0x0D TIF> >0x28 TIF> >0x239 TIF> >0x0D TIF> >0x28 TIF> - Data: 0D 00 00 00 E0 00 00 00 05 00 00 00 B1 00 00 00  returns 0x00 (0002ms, 3914ms total)
T14BC 004:190 JLINK_ReadMem (0xE0000FD0, 0x0020 Bytes, ...) -- CPU is running >0x0D TIF> >0x28 TIF> >0x305 TIF> >0x0D TIF> >0x28 TIF> - Data: 04 00 00 00 00 00 00 00 00 00 00 00 00 00 00 00 ...  returns 0x00 (0003ms, 3917ms total)
T14BC 004:193 JLINK_ReadMem (0xE0040FF0, 0x0010 Bytes, ...) -- CPU is running >0x0D TIF> >0x28 TIF> >0x239 TIF> >0x0D TIF> >0x28 TIF> - Data: 0D 00 00 00 90 00 00 00 05 00 00 00 B1 00 00 00  returns 0x00 (0003ms, 3920ms total)
T14BC 004:196 JLINK_ReadMem (0xE0040FD0, 0x0020 Bytes, ...) -- CPU is running >0x0D TIF> >0x28 TIF> >0x305 TIF> >0x0D TIF> >0x28 TIF> - Data: 04 00 00 00 00 00 00 00 00 00 00 00 00 00 00 00 ...  returns 0x00 (0003ms, 3923ms total)
T14BC 004:199 JLINK_ReadMem (0xE0041FF0, 0x0010 Bytes, ...) -- CPU is running >0x0D TIF> >0x28 TIF> >0x239 TIF> >0x0D TIF> >0x28 TIF> - Data: 0D 00 00 00 90 00 00 00 05 00 00 00 B1 00 00 00  returns 0x00 (0002ms, 3925ms total)
T14BC 004:201 JLINK_ReadMem (0xE0041FD0, 0x0020 Bytes, ...) -- CPU is running >0x0D TIF> >0x28 TIF> >0x305 TIF> >0x0D TIF> >0x28 TIF> - Data: 04 00 00 00 00 00 00 00 00 00 00 00 00 00 00 00 ...  returns 0x00 (0003ms, 3928ms total)
T14BC 004:204 JLINK_ReadMemU32(0xE000EF40, 0x0001 Items, ...) -- CPU is running >0x0D TIF> >0x28 TIF> >0x1A0 TIF> >0x0D TIF> >0x28 TIF> - Data: 21 00 11 10  returns 0x01 (0002ms, 3930ms total)
T14BC 004:206 JLINK_ReadMemU32(0xE000EF44, 0x0001 Items, ...) -- CPU is running >0x0D TIF> >0x28 TIF> >0x1A0 TIF> >0x0D TIF> >0x28 TIF> - Data: 11 00 00 11  returns 0x01 (0002ms, 3932ms total)
T14BC 004:209 JLINK_ReadMemU32(0xE000ED00, 0x0001 Items, ...) -- CPU is running >0x0D TIF> >0x28 TIF> >0x1A0 TIF> >0x0D TIF> >0x28 TIF> - Data: 41 C2 0F 41  returns 0x01 (0002ms, 3935ms total)
T14BC 004:211 JLINK_SetResetType(JLINKARM_RESET_TYPE_NORMAL)  returns JLINKARM_RESET_TYPE_NORMAL (0000ms, 3935ms total)
T14BC 004:211 JLINK_Reset() -- CPU is running >0x0D TIF> >0x28 TIF> >0x1A2 TIF> >0x0D TIF> >0x28 TIF> -- CPU is running >0x0D TIF> >0x28 TIF> >0x1A2 TIF> >0x0D TIF> >0x28 TIF> >0x35 TIF> -- CPU is running >0x0D TIF> >0x28 TIF> >0x1A2 TIF> >0x0D TIF> >0x28 TIF> -- CPU is running >0x0D TIF> >0x28 TIF> >0x1A0 TIF> >0x0D TIF> >0x28 TIF> -- CPU is running >0x0D TIF> >0x28 TIF> >0x1A0 TIF> >0x0D TIF> >0x28 TIF> -- CPU is running >0x0D TIF> >0x28 TIF> >0x1A2 TIF> >0x0D TIF> >0x28 TIF> -- CPU is running
 >0x0D TIF> >0x28 TIF> >0x1A2 TIF> >0x0D TIF> >0x28 TIF> -- CPU is running >0x0D TIF> >0x28 TIF> >0x1A0 TIF> >0x0D TIF> >0x28 TIF> -- CPU is running >0x0D TIF> >0x28 TIF> >0x1A0 TIF> >0x0D TIF> >0x28 TIF> >0x11E4 TIF> >0x0D TIF> >0x28 TIF> >0x1A2 TIF> >0x0D TIF> >0x28 TIF> >0x0D TIF> >0x28 TIF> >0x1A0 TIF> >0x0D TIF> >0x28 TIF> >0x0D TIF> >0x28 TIF> >0x1A0 TIF> >0x0D TIF> >0x28 TIF> (0043ms, 3978ms total)
T14BC 004:254 JLINK_Halt()  returns 0x00 (0000ms, 3978ms total)
T14BC 004:254 JLINK_IsHalted()  returns TRUE (0000ms, 3978ms total)
T14BC 004:254 JLINK_ReadMemU32(0xE000EDF0, 0x0001 Items, ...) >0x0D TIF> >0x28 TIF> >0x1A0 TIF> >0x0D TIF> >0x28 TIF> - Data: 03 00 03 00  returns 0x01 (0004ms, 3982ms total)
T14BC 004:258 JLINK_WriteU32(0xE000EDF0, 0xA05F0003) >0x0D TIF> >0x28 TIF> >0x1A2 TIF> >0x0D TIF> >0x28 TIF>  returns 0x00 (0003ms, 3985ms total)
T14BC 004:261 JLINK_WriteU32(0xE000EDFC, 0x01000000) >0x0D TIF> >0x28 TIF> >0x1A2 TIF> >0x0D TIF> >0x28 TIF>  returns 0x00 (0003ms, 3988ms total)
T14BC 004:293 JLINK_GetHWStatus(...)  returns 0x00 (0001ms, 3989ms total)
T14BC 004:309 JLINK_GetNumBPUnits(Type = 0xFFFFFF00)  returns 0x06 (0001ms, 3990ms total)
T14BC 004:310 JLINK_GetNumBPUnits(Type = 0xF0)  returns 0x2000 (0000ms, 3990ms total)
T14BC 004:310 JLINK_GetNumWPUnits()  returns 0x04 (0000ms, 3990ms total)
T14BC 004:326 JLINK_GetSpeed()  returns 0xFA0 (0000ms, 3990ms total)
T14BC 004:338 JLINK_ReadMemU32(0xE000E004, 0x0001 Items, ...) >0x0D TIF> >0x28 TIF> >0x1A0 TIF> >0x0D TIF> >0x28 TIF> - Data: 02 00 00 00  returns 0x01 (0003ms, 3993ms total)
T14BC 004:341 JLINK_ReadMemU32(0xE000E004, 0x0001 Items, ...) >0x0D TIF> >0x28 TIF> >0x1A0 TIF> >0x0D TIF> >0x28 TIF> - Data: 02 00 00 00  returns 0x01 (0002ms, 3995ms total)
T14BC 004:343 JLINK_WriteMem(0xE0001000, 0x001C Bytes, ...) - Data: 01 00 00 00 00 00 00 00 00 00 00 00 00 00 00 00 ... >0x0D TIF> >0x28 TIF> >0x2E0 TIF> >0x0D TIF> >0x28 TIF>  returns 0x1C (0004ms, 3999ms total)
T14BC 004:347 JLINK_ReadMem (0xE0001000, 0x001C Bytes, ...) >0x0D TIF> >0x28 TIF> >0x2D2 TIF> >0x0D TIF> >0x28 TIF> - Data: 01 00 00 40 00 00 00 00 00 00 00 00 00 00 00 00 ...  returns 0x00 (0003ms, 4002ms total)
T14BC 004:350 JLINK_Halt()  returns 0x00 (0000ms, 4002ms total)
T14BC 004:350 JLINK_IsHalted()  returns TRUE (0001ms, 4003ms total)
T14BC 004:361 JLINK_WriteMem(0x20000000, 0x0180 Bytes, ...) - Data: 00 BE 0A E0 0D 78 2D 06 68 40 08 24 40 00 00 D3 ... >0x0D TIF> >0x28 TIF> >0x154D TIF> >0x0D TIF> >0x28 TIF>  returns 0x180 (0009ms, 4011ms total)
T14BC 004:371 JLINK_WriteReg(R0, 0x08000000)  returns 0x00 (0000ms, 4011ms total)
T14BC 004:371 JLINK_WriteReg(R1, 0x00B71B00)  returns 0x00 (0000ms, 4011ms total)
T14BC 004:371 JLINK_WriteReg(R2, 0x00000001)  returns 0x00 (0000ms, 4011ms total)
T14BC 004:371 JLINK_WriteReg(R3, 0x00000000)  returns 0x00 (0000ms, 4011ms total)
T14BC 004:371 JLINK_WriteReg(R4, 0x00000000)  returns 0x00 (0000ms, 4011ms total)
T14BC 004:371 JLINK_WriteReg(R5, 0x00000000)  returns 0x00 (0000ms, 4011ms total)
T14BC 004:371 JLINK_WriteReg(R6, 0x00000000)  returns 0x00 (0000ms, 4011ms total)
T14BC 004:371 JLINK_WriteReg(R7, 0x00000000)  returns 0x00 (0000ms, 4011ms total)
T14BC 004:371 JLINK_WriteReg(R8, 0x00000000)  returns 0x00 (0000ms, 4011ms total)
T14BC 004:371 JLINK_WriteReg(R9, 0x2000017C)  returns 0x00 (0000ms, 4011ms total)
T14BC 004:371 JLINK_WriteReg(R10, 0x00000000)  returns 0x00 (0000ms, 4011ms total)
T14BC 004:371 JLINK_WriteReg(R11, 0x00000000)  returns 0x00 (0000ms, 4011ms total)
T14BC 004:371 JLINK_WriteReg(R12, 0x00000000)  returns 0x00 (0000ms, 4011ms total)
T14BC 004:371 JLINK_WriteReg(R13 (SP), 0x20001000)  returns 0x00 (0000ms, 4011ms total)
T14BC 004:371 JLINK_WriteReg(R14, 0x20000001)  returns 0x00 (0000ms, 4011ms total)
T14BC 004:372 JLINK_WriteReg(R15 (PC), 0x20000054)  returns 0x00 (0000ms, 4012ms total)
T14BC 004:372 JLINK_WriteReg(XPSR, 0x01000000)  returns 0x00 (0000ms, 4012ms total)
T14BC 004:372 JLINK_WriteReg(MSP, 0x20001000)  returns 0x00 (0000ms, 4012ms total)
T14BC 004:372 JLINK_WriteReg(PSP, 0x20001000)  returns 0x00 (0000ms, 4012ms total)
T14BC 004:372 JLINK_WriteReg(CFBP, 0x00000000)  returns 0x00 (0000ms, 4012ms total)
T14BC 004:372 JLINK_SetBPEx(Addr = 0x20000000, Type = 0xFFFFFFF2) >0x0D TIF> >0x28 TIF> >0x1A0 TIF> >0x0D TIF> >0x28 TIF>  returns 0x00000001 (0002ms, 4014ms total)
T14BC 004:374 JLINK_Go() >0x0D TIF> >0x28 TIF> >0x1A2 TIF> >0x0D TIF> >0x28 TIF> >0x0D TIF> >0x28 TIF> >0x1A2 TIF> >0x0D TIF> >0x28 TIF> >0x0D TIF> >0x28 TIF> >0x1A2 TIF> >0x0D TIF> >0x28 TIF> >0x0D TIF> >0x28 TIF> >0x1A2 TIF> >0x0D TIF> >0x28 TIF> >0x0D TIF> >0x28 TIF> >0x1A2 TIF> >0x0D TIF> >0x28 TIF> >0x0D TIF> >0x28 TIF> >0x1A2 TIF> >0x0D TIF> >0x28 TIF> >0x0D TIF> >0x28 TIF> >0x1A2 TIF> >0x0D TIF> >0x28 TIF> >0x0D TIF> >0x28 TIF> >0x20E TIF> >0x13A TIF> >0x13A TIF> >0x13A TIF> >0x13A TIF>
 >0x13A TIF> >0x13A TIF> >0x13A TIF> >0x1A2 TIF> >0x0D TIF> >0x28 TIF> (0024ms, 4038ms total)
T14BC 004:398 JLINK_IsHalted() -- CPU is running >0x0D TIF> >0x28 TIF> >0x1A0 TIF> >0x0D TIF> >0x28 TIF> >0x11E4 TIF> >0x0D TIF> >0x28 TIF> >0x1A0 TIF> >0x0D TIF> >0x28 TIF>  returns TRUE (0011ms, 4049ms total)
T14BC 004:409 JLINK_ReadReg(R15 (PC))  returns 0x20000000 (0000ms, 4038ms total)
T14BC 004:409 JLINK_ClrBPEx(BPHandle = 0x00000001)  returns 0x00 (0000ms, 4038ms total)
T14BC 004:409 JLINK_ReadReg(R0)  returns 0x00000000 (0000ms, 4038ms total)
T14BC 004:412 JLINK_WriteReg(R0, 0x08000000)  returns 0x00 (0000ms, 4038ms total)
T14BC 004:412 JLINK_WriteReg(R1, 0x00004000)  returns 0x00 (0000ms, 4038ms total)
T14BC 004:412 JLINK_WriteReg(R2, 0x000000FF)  returns 0x00 (0000ms, 4038ms total)
T14BC 004:412 JLINK_WriteReg(R3, 0x00000000)  returns 0x00 (0000ms, 4038ms total)
T14BC 004:412 JLINK_WriteReg(R4, 0x00000000)  returns 0x00 (0000ms, 4038ms total)
T14BC 004:412 JLINK_WriteReg(R5, 0x00000000)  returns 0x00 (0000ms, 4038ms total)
T14BC 004:412 JLINK_WriteReg(R6, 0x00000000)  returns 0x00 (0000ms, 4038ms total)
T14BC 004:412 JLINK_WriteReg(R7, 0x00000000)  returns 0x00 (0000ms, 4038ms total)
T14BC 004:412 JLINK_WriteReg(R8, 0x00000000)  returns 0x00 (0000ms, 4038ms total)
T14BC 004:412 JLINK_WriteReg(R9, 0x2000017C)  returns 0x00 (0000ms, 4038ms total)
T14BC 004:412 JLINK_WriteReg(R10, 0x00000000)  returns 0x00 (0000ms, 4038ms total)
T14BC 004:412 JLINK_WriteReg(R11, 0x00000000)  returns 0x00 (0000ms, 4038ms total)
T14BC 004:412 JLINK_WriteReg(R12, 0x00000000)  returns 0x00 (0001ms, 4039ms total)
T14BC 004:413 JLINK_WriteReg(R13 (SP), 0x20001000)  returns 0x00 (0000ms, 4039ms total)
T14BC 004:413 JLINK_WriteReg(R14, 0x20000001)  returns 0x00 (0000ms, 4039ms total)
T14BC 004:413 JLINK_WriteReg(R15 (PC), 0x20000020)  returns 0x00 (0000ms, 4039ms total)
T14BC 004:413 JLINK_WriteReg(XPSR, 0x01000000)  returns 0x00 (0000ms, 4039ms total)
T14BC 004:413 JLINK_WriteReg(MSP, 0x20001000)  returns 0x00 (0000ms, 4039ms total)
T14BC 004:413 JLINK_WriteReg(PSP, 0x20001000)  returns 0x00 (0000ms, 4039ms total)
T14BC 004:413 JLINK_WriteReg(CFBP, 0x00000000)  returns 0x00 (0000ms, 4039ms total)
T14BC 004:413 JLINK_SetBPEx(Addr = 0x20000000, Type = 0xFFFFFFF2)  returns 0x00000002 (0000ms, 4039ms total)
T14BC 004:413 JLINK_Go() >0x0D TIF> >0x28 TIF> >0x20E TIF> >0x13A TIF> >0x13A TIF> >0x13A TIF> >0x13A TIF> >0x1A2 TIF> >0x0D TIF> >0x28 TIF> (0009ms, 4048ms total)
T14BC 004:422 JLINK_IsHalted() -- CPU is running >0x0D TIF> >0x28 TIF> >0x1A0 TIF> >0x0D TIF> >0x28 TIF> >0x11E4 TIF> >0x0D TIF> >0x28 TIF> >0x1A0 TIF> >0x0D TIF> >0x28 TIF>  returns TRUE (0013ms, 4061ms total)
T14BC 004:435 JLINK_ReadReg(R15 (PC))  returns 0x20000000 (0000ms, 4048ms total)
T14BC 004:435 JLINK_ClrBPEx(BPHandle = 0x00000002)  returns 0x00 (0000ms, 4048ms total)
T14BC 004:435 JLINK_ReadReg(R0)  returns 0x00000001 (0000ms, 4048ms total)
T14BC 004:435 JLINK_WriteReg(R0, 0x08000000)  returns 0x00 (0000ms, 4048ms total)
T14BC 004:435 JLINK_WriteReg(R1, 0x00004000)  returns 0x00 (0000ms, 4048ms total)
T14BC 004:435 JLINK_WriteReg(R2, 0x000000FF)  returns 0x00 (0001ms, 4049ms total)
T14BC 004:436 JLINK_WriteReg(R3, 0x00000000)  returns 0x00 (0000ms, 4049ms total)
T14BC 004:436 JLINK_WriteReg(R4, 0x00000000)  returns 0x00 (0000ms, 4049ms total)
T14BC 004:436 JLINK_WriteReg(R5, 0x00000000)  returns 0x00 (0000ms, 4049ms total)
T14BC 004:436 JLINK_WriteReg(R6, 0x00000000)  returns 0x00 (0000ms, 4049ms total)
T14BC 004:436 JLINK_WriteReg(R7, 0x00000000)  returns 0x00 (0000ms, 4049ms total)
T14BC 004:436 JLINK_WriteReg(R8, 0x00000000)  returns 0x00 (0000ms, 4049ms total)
T14BC 004:436 JLINK_WriteReg(R9, 0x2000017C)  returns 0x00 (0000ms, 4049ms total)
T14BC 004:436 JLINK_WriteReg(R10, 0x00000000)  returns 0x00 (0000ms, 4049ms total)
T14BC 004:436 JLINK_WriteReg(R11, 0x00000000)  returns 0x00 (0000ms, 4049ms total)
T14BC 004:436 JLINK_WriteReg(R12, 0x00000000)  returns 0x00 (0000ms, 4049ms total)
T14BC 004:436 JLINK_WriteReg(R13 (SP), 0x20001000)  returns 0x00 (0000ms, 4049ms total)
T14BC 004:437 JLINK_WriteReg(R14, 0x20000001)  returns 0x00 (0000ms, 4049ms total)
T14BC 004:437 JLINK_WriteReg(R15 (PC), 0x200000BC)  returns 0x00 (0000ms, 4049ms total)
T14BC 004:437 JLINK_WriteReg(XPSR, 0x01000000)  returns 0x00 (0000ms, 4049ms total)
T14BC 004:437 JLINK_WriteReg(MSP, 0x20001000)  returns 0x00 (0000ms, 4049ms total)
T14BC 004:437 JLINK_WriteReg(PSP, 0x20001000)  returns 0x00 (0000ms, 4049ms total)
T14BC 004:437 JLINK_WriteReg(CFBP, 0x00000000)  returns 0x00 (0000ms, 4049ms total)
T14BC 004:437 JLINK_SetBPEx(Addr = 0x20000000, Type = 0xFFFFFFF2)  returns 0x00000003 (0000ms, 4049ms total)
T14BC 004:437 JLINK_Go() >0x0D TIF> >0x28 TIF> >0x20E TIF> >0x13A TIF> >0x13A TIF> >0x13A TIF> >0x1A2 TIF> >0x0D TIF> >0x28 TIF> (0007ms, 4056ms total)
T14BC 004:445 JLINK_IsHalted() -- CPU is running >0x0D TIF> >0x28 TIF> >0x1A0 TIF> >0x0D TIF> >0x28 TIF>  returns FALSE (0003ms, 4060ms total)
T14BC 004:901 JLINK_IsHalted() -- CPU is running >0x0D TIF> >0x28 TIF> >0x1A0 TIF> >0x0D TIF> >0x28 TIF> >0x11E4 TIF> >0x0D TIF> >0x28 TIF> >0x1A0 TIF> >0x0D TIF> >0x28 TIF>  returns TRUE (0012ms, 4069ms total)
T14BC 004:913 JLINK_ReadReg(R15 (PC))  returns 0x20000000 (0000ms, 4057ms total)
T14BC 004:913 JLINK_ClrBPEx(BPHandle = 0x00000003)  returns 0x00 (0000ms, 4057ms total)
T14BC 004:913 JLINK_ReadReg(R0)  returns 0x00000000 (0000ms, 4057ms total)
T14BC 004:915 JLINK_WriteReg(R0, 0x08004000)  returns 0x00 (0000ms, 4057ms total)
T14BC 004:915 JLINK_WriteReg(R1, 0x00004000)  returns 0x00 (0000ms, 4057ms total)
T14BC 004:915 JLINK_WriteReg(R2, 0x000000FF)  returns 0x00 (0000ms, 4057ms total)
T14BC 004:915 JLINK_WriteReg(R3, 0x00000000)  returns 0x00 (0000ms, 4057ms total)
T14BC 004:915 JLINK_WriteReg(R4, 0x00000000)  returns 0x00 (0000ms, 4057ms total)
T14BC 004:915 JLINK_WriteReg(R5, 0x00000000)  returns 0x00 (0000ms, 4057ms total)
T14BC 004:915 JLINK_WriteReg(R6, 0x00000000)  returns 0x00 (0000ms, 4057ms total)
T14BC 004:915 JLINK_WriteReg(R7, 0x00000000)  returns 0x00 (0000ms, 4057ms total)
T14BC 004:915 JLINK_WriteReg(R8, 0x00000000)  returns 0x00 (0000ms, 4057ms total)
T14BC 004:915 JLINK_WriteReg(R9, 0x2000017C)  returns 0x00 (0000ms, 4057ms total)
T14BC 004:915 JLINK_WriteReg(R10, 0x00000000)  returns 0x00 (0000ms, 4057ms total)
T14BC 004:915 JLINK_WriteReg(R11, 0x00000000)  returns 0x00 (0000ms, 4057ms total)
T14BC 004:915 JLINK_WriteReg(R12, 0x00000000)  returns 0x00 (0000ms, 4057ms total)
T14BC 004:915 JLINK_WriteReg(R13 (SP), 0x20001000)  returns 0x00 (0001ms, 4058ms total)
T14BC 004:916 JLINK_WriteReg(R14, 0x20000001)  returns 0x00 (0000ms, 4058ms total)
T14BC 004:916 JLINK_WriteReg(R15 (PC), 0x20000020)  returns 0x00 (0000ms, 4058ms total)
T14BC 004:916 JLINK_WriteReg(XPSR, 0x01000000)  returns 0x00 (0000ms, 4058ms total)
T14BC 004:916 JLINK_WriteReg(MSP, 0x20001000)  returns 0x00 (0000ms, 4058ms total)
T14BC 004:916 JLINK_WriteReg(PSP, 0x20001000)  returns 0x00 (0000ms, 4058ms total)
T14BC 004:916 JLINK_WriteReg(CFBP, 0x00000000)  returns 0x00 (0000ms, 4058ms total)
T14BC 004:916 JLINK_SetBPEx(Addr = 0x20000000, Type = 0xFFFFFFF2)  returns 0x00000004 (0000ms, 4058ms total)
T14BC 004:916 JLINK_Go() >0x0D TIF> >0x28 TIF> >0x20E TIF> >0x13A TIF> >0x13A TIF> >0x13A TIF> >0x13A TIF> >0x13A TIF> >0x13A TIF> >0x1A2 TIF> >0x0D TIF> >0x28 TIF> (0012ms, 4070ms total)
T14BC 004:928 JLINK_IsHalted() -- CPU is running >0x0D TIF> >0x28 TIF> >0x1A0 TIF> >0x0D TIF> >0x28 TIF> >0x11E4 TIF> >0x0D TIF> >0x28 TIF> >0x1A0 TIF> >0x0D TIF> >0x28 TIF>  returns TRUE (0012ms, 4082ms total)
T14BC 004:940 JLINK_ReadReg(R15 (PC))  returns 0x20000000 (0000ms, 4070ms total)
T14BC 004:940 JLINK_ClrBPEx(BPHandle = 0x00000004)  returns 0x00 (0000ms, 4070ms total)
T14BC 004:940 JLINK_ReadReg(R0)  returns 0x00000001 (0000ms, 4070ms total)
T14BC 004:940 JLINK_WriteReg(R0, 0x08004000)  returns 0x00 (0000ms, 4070ms total)
T14BC 004:940 JLINK_WriteReg(R1, 0x00004000)  returns 0x00 (0000ms, 4070ms total)
T14BC 004:940 JLINK_WriteReg(R2, 0x000000FF)  returns 0x00 (0000ms, 4070ms total)
T14BC 004:940 JLINK_WriteReg(R3, 0x00000000)  returns 0x00 (0000ms, 4070ms total)
T14BC 004:940 JLINK_WriteReg(R4, 0x00000000)  returns 0x00 (0000ms, 4070ms total)
T14BC 004:940 JLINK_WriteReg(R5, 0x00000000)  returns 0x00 (0000ms, 4070ms total)
T14BC 004:940 JLINK_WriteReg(R6, 0x00000000)  returns 0x00 (0000ms, 4070ms total)
T14BC 004:940 JLINK_WriteReg(R7, 0x00000000)  returns 0x00 (0001ms, 4071ms total)
T14BC 004:941 JLINK_WriteReg(R8, 0x00000000)  returns 0x00 (0000ms, 4071ms total)
T14BC 004:941 JLINK_WriteReg(R9, 0x2000017C)  returns 0x00 (0000ms, 4071ms total)
T14BC 004:941 JLINK_WriteReg(R10, 0x00000000)  returns 0x00 (0000ms, 4071ms total)
T14BC 004:941 JLINK_WriteReg(R11, 0x00000000)  returns 0x00 (0000ms, 4071ms total)
T14BC 004:941 JLINK_WriteReg(R12, 0x00000000)  returns 0x00 (0000ms, 4071ms total)
T14BC 004:941 JLINK_WriteReg(R13 (SP), 0x20001000)  returns 0x00 (0000ms, 4071ms total)
T14BC 004:941 JLINK_WriteReg(R14, 0x20000001)  returns 0x00 (0000ms, 4071ms total)
T14BC 004:941 JLINK_WriteReg(R15 (PC), 0x200000BC)  returns 0x00 (0000ms, 4071ms total)
T14BC 004:941 JLINK_WriteReg(XPSR, 0x01000000)  returns 0x00 (0000ms, 4071ms total)
T14BC 004:941 JLINK_WriteReg(MSP, 0x20001000)  returns 0x00 (0000ms, 4071ms total)
T14BC 004:941 JLINK_WriteReg(PSP, 0x20001000)  returns 0x00 (0000ms, 4071ms total)
T14BC 004:941 JLINK_WriteReg(CFBP, 0x00000000)  returns 0x00 (0000ms, 4071ms total)
T14BC 004:941 JLINK_SetBPEx(Addr = 0x20000000, Type = 0xFFFFFFF2)  returns 0x00000005 (0000ms, 4071ms total)
T14BC 004:941 JLINK_Go() >0x0D TIF> >0x28 TIF> >0x20E TIF> >0x13A TIF> >0x13A TIF> >0x13A TIF> >0x1A2 TIF> >0x0D TIF> >0x28 TIF> (0006ms, 4077ms total)
T14BC 004:947 JLINK_IsHalted() -- CPU is running >0x0D TIF> >0x28 TIF> >0x1A0 TIF> >0x0D TIF> >0x28 TIF>  returns FALSE (0002ms, 4079ms total)
T14BC 004:953 JLINK_IsHalted() -- CPU is running >0x0D TIF> >0x28 TIF> >0x1A0 TIF> >0x0D TIF> >0x28 TIF>  returns FALSE (0002ms, 4079ms total)
T14BC 004:957 JLINK_IsHalted() -- CPU is running >0x0D TIF> >0x28 TIF> >0x1A0 TIF> >0x0D TIF> >0x28 TIF>  returns FALSE (0002ms, 4079ms total)
T14BC 004:961 JLINK_IsHalted() -- CPU is running >0x0D TIF> >0x28 TIF> >0x1A0 TIF> >0x0D TIF> >0x28 TIF>  returns FALSE (0002ms, 4079ms total)
T14BC 004:965 JLINK_IsHalted() -- CPU is running >0x0D TIF> >0x28 TIF> >0x1A0 TIF> >0x0D TIF> >0x28 TIF>  returns FALSE (0002ms, 4079ms total)
T14BC 004:969 JLINK_IsHalted() -- CPU is running >0x0D TIF> >0x28 TIF> >0x1A0 TIF> >0x0D TIF> >0x28 TIF>  returns FALSE (0002ms, 4079ms total)
T14BC 004:973 JLINK_IsHalted() -- CPU is running >0x0D TIF> >0x28 TIF> >0x1A0 TIF> >0x0D TIF> >0x28 TIF>  returns FALSE (0002ms, 4079ms total)
T14BC 004:977 JLINK_IsHalted() -- CPU is running >0x0D TIF> >0x28 TIF> >0x1A0 TIF> >0x0D TIF> >0x28 TIF>  returns FALSE (0002ms, 4079ms total)
T14BC 004:981 JLINK_IsHalted() -- CPU is running >0x0D TIF> >0x28 TIF> >0x1A0 TIF> >0x0D TIF> >0x28 TIF>  returns FALSE (0002ms, 4079ms total)
T14BC 004:985 JLINK_IsHalted() -- CPU is running >0x0D TIF> >0x28 TIF> >0x1A0 TIF> >0x0D TIF> >0x28 TIF>  returns FALSE (0003ms, 4080ms total)
T14BC 004:994 JLINK_IsHalted() -- CPU is running >0x0D TIF> >0x28 TIF> >0x1A0 TIF> >0x0D TIF> >0x28 TIF>  returns FALSE (0003ms, 4080ms total)
T14BC 004:999 JLINK_IsHalted() -- CPU is running >0x0D TIF> >0x28 TIF> >0x1A0 TIF> >0x0D TIF> >0x28 TIF>  returns FALSE (0004ms, 4081ms total)
T14BC 005:006 JLINK_IsHalted() -- CPU is running >0x0D TIF> >0x28 TIF> >0x1A0 TIF> >0x0D TIF> >0x28 TIF>  returns FALSE (0003ms, 4080ms total)
T14BC 005:011 JLINK_IsHalted() -- CPU is running >0x0D TIF> >0x28 TIF> >0x1A0 TIF> >0x0D TIF> >0x28 TIF>  returns FALSE (0003ms, 4080ms total)
T14BC 005:016 JLINK_IsHalted() -- CPU is running >0x0D TIF> >0x28 TIF> >0x1A0 TIF> >0x0D TIF> >0x28 TIF>  returns FALSE (0003ms, 4080ms total)
T14BC 005:021 JLINK_IsHalted() -- CPU is running >0x0D TIF> >0x28 TIF> >0x1A0 TIF> >0x0D TIF> >0x28 TIF>  returns FALSE (0003ms, 4080ms total)
